;$FILEVERSION=1.1
;$STARTTIME=45252.6233696875
;
;   C:\Users\rio\OneDrive - FORSEE POWER\Documents\wtestalex.trc
;
;   Start time: 22/11/2023 14:57:39.141.0
;   Generated by PCAN-View v4.2.1.533
;
;   Message Number
;   |         Time Offset (ms)
;   |         |        Type
;   |         |        |        ID (hex)
;   |         |        |        |     Data Length
;   |         |        |        |     |   Data Bytes (hex) ...
;   |         |        |        |     |   |
;---+--   ----+----  --+--  ----+---  +  -+ -- -- -- -- -- -- --
     1)       158.1  Rx     1ABBF304  8  51 00 00 00 76 46 0F 00 
     2)       658.1  Rx     1ABBF304  8  51 00 00 00 76 46 00 00 
     3)      1158.1  Rx     1ABBF304  8  51 00 00 00 76 46 01 00 
     4)      1658.2  Rx     1ABBF304  8  51 00 00 00 76 46 02 00 
     5)      2158.1  Rx     1ABBF304  8  51 00 00 00 76 46 03 00 
     6)      2658.2  Rx     1ABBF304  8  51 00 00 00 76 46 04 00 
     7)      3158.2  Rx     1ABBF304  8  51 00 00 00 76 46 05 00 
     8)      3658.2  Rx     1ABBF304  8  51 00 00 00 76 46 06 00 
     9)      4158.2  Rx     1ABBF304  8  51 00 00 00 76 46 07 00 
    10)      4658.2  Rx     1ABBF304  8  51 00 00 00 76 46 08 00 
    11)      5158.2  Rx     1ABBF304  8  51 00 00 00 76 46 09 00 
    12)      5658.2  Rx     1ABBF304  8  51 00 00 00 76 46 0A 00 
    13)      6158.2  Rx     1ABBF304  8  51 00 00 00 76 46 0B 00 
    14)      6658.2  Rx     1ABBF304  8  51 00 00 00 76 46 0C 00 
    15)      7158.2  Rx     1ABBF304  8  51 00 00 00 76 46 0D 00 
    16)      7658.3  Rx     1ABBF304  8  51 00 00 00 76 46 0E 00 
    17)      8158.3  Rx     1ABBF304  8  51 00 00 00 76 46 0F 00 
    18)      8658.3  Rx     1ABBF304  8  51 00 00 00 76 46 00 00 
    19)      9158.2  Rx     1ABBF304  8  51 00 00 00 76 46 01 00 
    20)      9658.3  Rx     1ABBF304  8  51 00 00 00 76 46 02 00 
    21)     10158.3  Rx     1ABBF304  8  51 00 00 00 76 46 03 00 
    22)     10658.3  Rx     1ABBF304  8  50 00 00 00 76 46 04 00 
    23)     11158.3  Rx     1ABBF304  8  51 00 00 00 76 46 05 00 
    24)     11658.3  Rx     1ABBF304  8  51 00 00 00 76 46 06 00 
    25)     12158.4  Rx     1ABBF304  8  51 00 00 00 76 46 07 00 
    26)     12658.3  Rx     1ABBF304  8  51 00 00 00 76 46 08 00 
    27)     13158.3  Rx     1ABBF304  8  51 00 00 00 76 46 09 00 
    28)     13658.3  Rx     1ABBF304  8  51 00 00 00 76 46 0A 00 
    29)     14158.4  Rx     1ABBF304  8  51 00 00 00 76 46 0B 00 
    30)     14658.4  Rx     1ABBF304  8  51 00 00 00 76 46 0C 00 
    31)     15158.4  Rx     1ABBF304  8  51 00 00 00 76 46 0D 00 
    32)     15658.4  Rx     1ABBF304  8  51 00 00 00 76 46 0E 00 
    33)     16158.4  Rx     1ABBF304  8  51 00 00 00 76 46 0F 00 
    34)     16443.3  Tx     18FF8203  8  00 01 01 00 00 00 00 00 
    35)     16463.5  Rx     18FF0D82  8  00 01 01 00 00 FF FF FF 
    36)     16543.4  Tx     18FF8203  8  00 01 01 00 00 00 00 00 
    37)     16567.5  Rx     18FF0D82  8  00 01 01 00 00 FF FF FF 
    38)     16643.7  Tx     18FF8203  8  00 01 01 00 00 00 00 00 
    39)     16666.4  Rx     1ABBF304  8  51 00 00 00 76 46 00 00 
    40)     16674.4  Rx     18FF0D82  8  00 01 01 00 00 FF FF FF 
    41)     16744.0  Tx     18FF8203  8  00 01 01 00 00 00 00 00 
    42)     16775.5  Rx     18FF0D82  8  00 01 01 00 00 FF FF FF 
    43)     16843.2  Tx     18FF8203  8  00 01 01 00 00 00 00 00 
    44)     16879.5  Rx     18FF0D82  8  00 01 01 00 00 FF FF FF 
    45)     16944.4  Tx     18FF8203  8  00 01 01 00 00 00 00 00 
    46)     16983.5  Rx     18FF0D82  8  00 01 01 00 00 FF FF FF 
    47)     17043.6  Tx     18FF8203  8  00 01 01 00 00 00 00 00 
    48)     17087.5  Rx     18FF0D82  8  00 01 01 00 00 FF FF FF 
    49)     17143.1  Tx     18FF8203  8  00 01 01 00 00 00 00 00 
    50)     17186.4  Rx     1ABBF304  8  51 00 00 00 76 46 01 00 
    51)     17194.4  Rx     18FF0D82  8  00 01 01 00 00 FF FF FF 
    52)     17243.8  Tx     18FF8203  8  00 01 01 00 00 00 00 00 
    53)     17295.5  Rx     18FF0D82  8  00 01 01 00 00 FF FF FF 
    54)     17694.4  Rx     1ABBF304  8  51 00 00 00 76 46 02 00 
    55)     18194.4  Rx     1ABBF304  8  51 00 00 00 76 46 03 00 
    56)     18694.4  Rx     1ABBF304  8  51 00 00 00 76 46 04 00 
    57)     19194.4  Rx     1ABBF304  8  51 00 00 00 76 46 05 00 
    58)     19694.5  Rx     1ABBF304  8  51 00 00 00 76 46 06 00 
    59)     20194.4  Rx     1ABBF304  8  51 00 00 00 76 46 07 00 
    60)     20694.5  Rx     1ABBF304  8  51 00 00 00 76 46 08 00 
    61)     21194.5  Rx     1ABBF304  8  51 00 00 00 76 46 09 00 
    62)     21694.5  Rx     1ABBF304  8  51 00 00 00 76 46 0A 00 
    63)     23826.8  Rx     1ABBF301  8  51 00 00 00 76 46 01 00 
    64)     24326.8  Rx     1ABBF301  8  51 00 00 00 76 46 02 00 
    65)     24826.9  Rx     1ABBF301  8  51 00 00 00 76 46 03 00 
    66)     25326.9  Rx     1ABBF301  8  51 00 00 00 76 46 04 00 
    67)     25826.9  Rx     1ABBF301  8  51 00 00 00 76 46 05 00 
    68)     26326.9  Rx     1ABBF301  8  51 00 00 00 76 46 06 00 
    69)     26826.9  Rx     1ABBF301  8  51 00 00 00 76 46 07 00 
    70)     27326.9  Rx     1ABBF301  8  51 00 00 00 76 46 08 00 
    71)     27826.9  Rx     1ABBF301  8  51 00 00 00 76 46 09 00 
    72)     28326.9  Rx     1ABBF301  8  51 00 00 00 76 46 0A 00 
